T0E4C 8584:996 SEGGER J-Link V4.86b Log File (0000ms, 142943ms total)
T0E4C 8584:996 DLL Compiled: Jun 27 2014 20:11:00 (0000ms, 142943ms total)
T0E4C 8584:996 Logging started @ 2015-03-26 00:17 (0000ms, 142943ms total)
T0E4C 8585:028 JLINK_ExecCommand("Device = AT91SAM3S4B", ...)Device "ATSAM3S4B" selected (256 KB flash, 48 KB RAM).  returns 0x00 (0000ms, 142943ms total)
T0E4C 8585:029 JLINK_GetFirmwareString(...) (0000ms, 142943ms total)
T0E4C 8585:029 JLINK_GetHardwareVersion()  returns 0x13880 (0000ms, 142943ms total)
T0E4C 8585:029 JLINK_GetDLLVersion()  returns 48602 (0000ms, 142943ms total)
T0E4C 8585:052 JLINK_GetFirmwareString(...) (0000ms, 142943ms total)
T0E4C 8585:052 JLINK_GetHardwareVersion()  returns 0x13880 (0000ms, 142943ms total)
T0E4C 8585:052 JLINK_GetDLLVersion()  returns 48602 (0000ms, 142943ms total)
T0E4C 8585:059 JLINK_ExecCommand("ProjectFile = D:\my documents\elektronika\ARM programi\diploma\DAQ\USB_DAQ\jlink.config", ...)  returns 0x00 (0001ms, 142944ms total)
T0E4C 8585:094 JLINK_ExecCommand("Device = AT91SAM3S4B", ...)Device "ATSAM3S4B" selected (256 KB flash, 48 KB RAM).  returns 0x00 (0000ms, 142944ms total)
T0E4C 8585:094 JLINK_TIF_Select(JLINKARM_TIF_JTAG)  returns 0x00 (0002ms, 142946ms total)
T0E4C 8585:096 JLINK_GetIdData(...) >0x2F8 JTAG>TotalIRLen = 4, IRPrint = 0x01 >0x30 JTAG> >0x210 JTAG> >0x70 JTAG> >0x40 JTAG> >0x40 JTAG> >0x40 JTAG> >0x48 JTAG> >0x78 JTAG> >0x40 JTAG> >0x30 JTAG> >0x40 JTAG> >0x40 JTAG> >0x30 JTAG> >0x40 JTAG> >0x48 JTAG>Found Cortex-M3 r2p0, Little endian. -- CPU_WriteMem(4 bytes @ 0xE0002000) -- CPU_ReadMem(4 bytes @ 0xE000EDF0) -- CPU_ReadMem(4 bytes @ 0xE0002000)FPUnit: 6 code (BP) slots and 2 literal slots -- CPU_ReadMem(4 bytes @ 0xE000EDFC)
 -- CPU_ReadMem(4 bytes @ 0xE0001000) -- CPU_WriteMem(4 bytes @ 0xE0001000) -- CPU_ReadMem(4 bytes @ 0xE00FF010)TPIU fitted. -- CPU_ReadMem(4 bytes @ 0xE00FF014) -- CPU_ReadMem(4 bytes @ 0xE00FF018) ScanLen=4 NumDevices=1 aId[0]=0x4BA00477 aIrRead[0]=0 aScanLen[0]=0 aScanRead[0]=0 (0028ms, 142974ms total)
T0E4C 8585:124 JLINK_ConfigJTAG(IRPre = 0, DRPre = 0) (0000ms, 142974ms total)
T0E4C 8585:124 JLINK_SetSpeed(1000) (0000ms, 142974ms total)
T0E4C 8585:124 JLINK_Connect() >0x2F8 JTAG>TotalIRLen = 4, IRPrint = 0x01 >0x30 JTAG> >0x210 JTAG> >0x70 JTAG> >0x40 JTAG> >0x40 JTAG> >0x40 JTAG> >0x48 JTAG> >0x78 JTAG> >0x40 JTAG> >0x30 JTAG> >0x40 JTAG> >0x40 JTAG> >0x30 JTAG> >0x40 JTAG> >0x48 JTAG>Found Cortex-M3 r2p0, Little endian. -- CPU_WriteMem(4 bytes @ 0xE0002000) -- CPU_ReadMem(4 bytes @ 0xE000EDF0) -- CPU_ReadMem(4 bytes @ 0xE0002000)FPUnit: 6 code (BP) slots and 2 literal slots -- CPU_ReadMem(4 bytes @ 0xE000EDFC)
 -- CPU_ReadMem(4 bytes @ 0xE0001000) -- CPU_WriteMem(4 bytes @ 0xE0001000) -- CPU_ReadMem(4 bytes @ 0xE00FF010)TPIU fitted. -- CPU_ReadMem(4 bytes @ 0xE00FF014) -- CPU_ReadMem(4 bytes @ 0xE00FF018)  returns 0x00 (0029ms, 143003ms total)
T0E4C 8585:153 JLINK_GetDebugInfo(0x100) -- Value=0xE00FF003  returns 0x00 (0001ms, 143004ms total)
T0E4C 8585:154 JLINK_ReadMemU8(0xE00FFFF0, 0x0001 Items, ...) -- CPU is running -- CPU_ReadMem(1 bytes @ 0xE00FFFF0) - Data: 0D  returns 0x01 (0001ms, 143005ms total)
T0E4C 8585:155 JLINK_ReadMemU8(0xE00FFFF4, 0x0001 Items, ...) -- CPU is running -- CPU_ReadMem(1 bytes @ 0xE00FFFF4) - Data: 10  returns 0x01 (0002ms, 143007ms total)
T0E4C 8585:157 JLINK_ReadMemU8(0xE00FFFF8, 0x0001 Items, ...) -- CPU is running -- CPU_ReadMem(1 bytes @ 0xE00FFFF8) - Data: 05  returns 0x01 (0001ms, 143008ms total)
T0E4C 8585:158 JLINK_ReadMemU8(0xE00FFFFC, 0x0001 Items, ...) -- CPU is running -- CPU_ReadMem(1 bytes @ 0xE00FFFFC) - Data: B1  returns 0x01 (0001ms, 143009ms total)
T0E4C 8585:159 JLINK_ReadMemU8(0xE00FFFD0, 0x0001 Items, ...) -- CPU is running -- CPU_ReadMem(1 bytes @ 0xE00FFFD0) - Data: 00  returns 0x01 (0001ms, 143010ms total)
T0E4C 8585:160 JLINK_ReadMemU8(0xE00FFFD4, 0x0001 Items, ...) -- CPU is running -- CPU_ReadMem(1 bytes @ 0xE00FFFD4) - Data: 00  returns 0x01 (0002ms, 143012ms total)
T0E4C 8585:162 JLINK_ReadMemU8(0xE00FFFD8, 0x0001 Items, ...) -- CPU is running -- CPU_ReadMem(1 bytes @ 0xE00FFFD8) - Data: 00  returns 0x01 (0001ms, 143013ms total)
T0E4C 8585:163 JLINK_ReadMemU8(0xE00FFFDC, 0x0001 Items, ...) -- CPU is running -- CPU_ReadMem(1 bytes @ 0xE00FFFDC) - Data: 00  returns 0x01 (0001ms, 143014ms total)
T0E4C 8585:164 JLINK_ReadMemU8(0xE00FFFE0, 0x0001 Items, ...) -- CPU is running -- CPU_ReadMem(1 bytes @ 0xE00FFFE0) - Data: 00  returns 0x01 (0002ms, 143016ms total)
T0E4C 8585:166 JLINK_ReadMemU8(0xE00FFFE4, 0x0001 Items, ...) -- CPU is running -- CPU_ReadMem(1 bytes @ 0xE00FFFE4) - Data: 00  returns 0x01 (0001ms, 143017ms total)
T0E4C 8585:167 JLINK_ReadMemU8(0xE00FFFE8, 0x0001 Items, ...) -- CPU is running -- CPU_ReadMem(1 bytes @ 0xE00FFFE8) - Data: 00  returns 0x01 (0001ms, 143018ms total)
T0E4C 8585:168 JLINK_ReadMemU8(0xE00FFFEC, 0x0001 Items, ...) -- CPU is running -- CPU_ReadMem(1 bytes @ 0xE00FFFEC) - Data: 00  returns 0x01 (0001ms, 143019ms total)
T0E4C 8585:169 JLINK_ReadMemU32(0xE00FF000, 0x0001 Items, ...) -- CPU is running -- CPU_ReadMem(4 bytes @ 0xE00FF000) - Data: 03 F0 F0 FF  returns 0x01 (0002ms, 143021ms total)
T0E4C 8585:171 JLINK_ReadMemU8(0xE000EFF0, 0x0001 Items, ...) -- CPU is running -- CPU_ReadMem(1 bytes @ 0xE000EFF0) - Data: 0D  returns 0x01 (0001ms, 143022ms total)
T0E4C 8585:172 JLINK_ReadMemU8(0xE000EFF4, 0x0001 Items, ...) -- CPU is running -- CPU_ReadMem(1 bytes @ 0xE000EFF4) - Data: E0  returns 0x01 (0001ms, 143023ms total)
T0E4C 8585:173 JLINK_ReadMemU8(0xE000EFF8, 0x0001 Items, ...) -- CPU is running -- CPU_ReadMem(1 bytes @ 0xE000EFF8) - Data: 05  returns 0x01 (0001ms, 143024ms total)
T0E4C 8585:174 JLINK_ReadMemU8(0xE000EFFC, 0x0001 Items, ...) -- CPU is running -- CPU_ReadMem(1 bytes @ 0xE000EFFC) - Data: B1  returns 0x01 (0002ms, 143026ms total)
T0E4C 8585:176 JLINK_ReadMemU8(0xE000EFD0, 0x0001 Items, ...) -- CPU is running -- CPU_ReadMem(1 bytes @ 0xE000EFD0) - Data: 04  returns 0x01 (0001ms, 143027ms total)
T0E4C 8585:177 JLINK_ReadMemU8(0xE000EFD4, 0x0001 Items, ...) -- CPU is running -- CPU_ReadMem(1 bytes @ 0xE000EFD4) - Data: 00  returns 0x01 (0001ms, 143028ms total)
T0E4C 8585:178 JLINK_ReadMemU8(0xE000EFD8, 0x0001 Items, ...) -- CPU is running -- CPU_ReadMem(1 bytes @ 0xE000EFD8) - Data: 00  returns 0x01 (0001ms, 143029ms total)
T0E4C 8585:179 JLINK_ReadMemU8(0xE000EFDC, 0x0001 Items, ...) -- CPU is running -- CPU_ReadMem(1 bytes @ 0xE000EFDC) - Data: 00  returns 0x01 (0002ms, 143031ms total)
T0E4C 8585:181 JLINK_ReadMemU8(0xE000EFE0, 0x0001 Items, ...) -- CPU is running -- CPU_ReadMem(1 bytes @ 0xE000EFE0) - Data: 00  returns 0x01 (0001ms, 143032ms total)
T0E4C 8585:182 JLINK_ReadMemU8(0xE000EFE4, 0x0001 Items, ...) -- CPU is running -- CPU_ReadMem(1 bytes @ 0xE000EFE4) - Data: B0  returns 0x01 (0001ms, 143033ms total)
T0E4C 8585:183 JLINK_ReadMemU8(0xE000EFE8, 0x0001 Items, ...) -- CPU is running -- CPU_ReadMem(1 bytes @ 0xE000EFE8) - Data: 2B  returns 0x01 (0002ms, 143035ms total)
T0E4C 8585:185 JLINK_ReadMemU8(0xE000EFEC, 0x0001 Items, ...) -- CPU is running -- CPU_ReadMem(1 bytes @ 0xE000EFEC) - Data: 00  returns 0x01 (0001ms, 143036ms total)
T0E4C 8585:186 JLINK_ReadMemU32(0xE00FF004, 0x0001 Items, ...) -- CPU is running -- CPU_ReadMem(4 bytes @ 0xE00FF004) - Data: 03 20 F0 FF  returns 0x01 (0001ms, 143037ms total)
T0E4C 8585:187 JLINK_ReadMemU8(0xE0001FF0, 0x0001 Items, ...) -- CPU is running -- CPU_ReadMem(1 bytes @ 0xE0001FF0) - Data: 0D  returns 0x01 (0002ms, 143039ms total)
T0E4C 8585:189 JLINK_ReadMemU8(0xE0001FF4, 0x0001 Items, ...) -- CPU is running -- CPU_ReadMem(1 bytes @ 0xE0001FF4) - Data: E0  returns 0x01 (0001ms, 143040ms total)
T0E4C 8585:190 JLINK_ReadMemU8(0xE0001FF8, 0x0001 Items, ...) -- CPU is running -- CPU_ReadMem(1 bytes @ 0xE0001FF8) - Data: 05  returns 0x01 (0001ms, 143041ms total)
T0E4C 8585:191 JLINK_ReadMemU8(0xE0001FFC, 0x0001 Items, ...) -- CPU is running -- CPU_ReadMem(1 bytes @ 0xE0001FFC) - Data: B1  returns 0x01 (0001ms, 143042ms total)
T0E4C 8585:192 JLINK_ReadMemU8(0xE0001FD0, 0x0001 Items, ...) -- CPU is running -- CPU_ReadMem(1 bytes @ 0xE0001FD0) - Data: 04  returns 0x01 (0001ms, 143043ms total)
T0E4C 8585:193 JLINK_ReadMemU8(0xE0001FD4, 0x0001 Items, ...) -- CPU is running -- CPU_ReadMem(1 bytes @ 0xE0001FD4) - Data: 00  returns 0x01 (0002ms, 143045ms total)
T0E4C 8585:195 JLINK_ReadMemU8(0xE0001FD8, 0x0001 Items, ...) -- CPU is running -- CPU_ReadMem(1 bytes @ 0xE0001FD8) - Data: 00  returns 0x01 (0001ms, 143046ms total)
T0E4C 8585:196 JLINK_ReadMemU8(0xE0001FDC, 0x0001 Items, ...) -- CPU is running -- CPU_ReadMem(1 bytes @ 0xE0001FDC) - Data: 00  returns 0x01 (0001ms, 143047ms total)
T0E4C 8585:197 JLINK_ReadMemU8(0xE0001FE0, 0x0001 Items, ...) -- CPU is running -- CPU_ReadMem(1 bytes @ 0xE0001FE0) - Data: 02  returns 0x01 (0001ms, 143048ms total)
T0E4C 8585:198 JLINK_ReadMemU8(0xE0001FE4, 0x0001 Items, ...) -- CPU is running -- CPU_ReadMem(1 bytes @ 0xE0001FE4) - Data: B0  returns 0x01 (0001ms, 143049ms total)
T0E4C 8585:199 JLINK_ReadMemU8(0xE0001FE8, 0x0001 Items, ...) -- CPU is running -- CPU_ReadMem(1 bytes @ 0xE0001FE8) - Data: 2B  returns 0x01 (0002ms, 143051ms total)
T0E4C 8585:201 JLINK_ReadMemU8(0xE0001FEC, 0x0001 Items, ...) -- CPU is running -- CPU_ReadMem(1 bytes @ 0xE0001FEC) - Data: 00  returns 0x01 (0001ms, 143052ms total)
T0E4C 8585:202 JLINK_ReadMemU32(0xE00FF008, 0x0001 Items, ...) -- CPU is running -- CPU_ReadMem(4 bytes @ 0xE00FF008) - Data: 03 30 F0 FF  returns 0x01 (0001ms, 143053ms total)
T0E4C 8585:203 JLINK_ReadMemU8(0xE0002FF0, 0x0001 Items, ...) -- CPU is running -- CPU_ReadMem(1 bytes @ 0xE0002FF0) - Data: 0D  returns 0x01 (0001ms, 143054ms total)
T0E4C 8585:204 JLINK_ReadMemU8(0xE0002FF4, 0x0001 Items, ...) -- CPU is running -- CPU_ReadMem(1 bytes @ 0xE0002FF4) - Data: E0  returns 0x01 (0002ms, 143056ms total)
T0E4C 8585:206 JLINK_ReadMemU8(0xE0002FF8, 0x0001 Items, ...) -- CPU is running -- CPU_ReadMem(1 bytes @ 0xE0002FF8) - Data: 05  returns 0x01 (0001ms, 143057ms total)
T0E4C 8585:207 JLINK_ReadMemU8(0xE0002FFC, 0x0001 Items, ...) -- CPU is running -- CPU_ReadMem(1 bytes @ 0xE0002FFC) - Data: B1  returns 0x01 (0002ms, 143059ms total)
T0E4C 8585:209 JLINK_ReadMemU8(0xE0002FD0, 0x0001 Items, ...) -- CPU is running -- CPU_ReadMem(1 bytes @ 0xE0002FD0) - Data: 04  returns 0x01 (0001ms, 143060ms total)
T0E4C 8585:210 JLINK_ReadMemU8(0xE0002FD4, 0x0001 Items, ...) -- CPU is running -- CPU_ReadMem(1 bytes @ 0xE0002FD4) - Data: 00  returns 0x01 (0001ms, 143061ms total)
T0E4C 8585:211 JLINK_ReadMemU8(0xE0002FD8, 0x0001 Items, ...) -- CPU is running -- CPU_ReadMem(1 bytes @ 0xE0002FD8) - Data: 00  returns 0x01 (0001ms, 143062ms total)
T0E4C 8585:212 JLINK_ReadMemU8(0xE0002FDC, 0x0001 Items, ...) -- CPU is running -- CPU_ReadMem(1 bytes @ 0xE0002FDC) - Data: 00  returns 0x01 (0001ms, 143063ms total)
T0E4C 8585:213 JLINK_ReadMemU8(0xE0002FE0, 0x0001 Items, ...) -- CPU is running -- CPU_ReadMem(1 bytes @ 0xE0002FE0) - Data: 03  returns 0x01 (0001ms, 143064ms total)
T0E4C 8585:214 JLINK_ReadMemU8(0xE0002FE4, 0x0001 Items, ...) -- CPU is running -- CPU_ReadMem(1 bytes @ 0xE0002FE4) - Data: B0  returns 0x01 (0001ms, 143065ms total)
T0E4C 8585:215 JLINK_ReadMemU8(0xE0002FE8, 0x0001 Items, ...) -- CPU is running -- CPU_ReadMem(1 bytes @ 0xE0002FE8) - Data: 2B  returns 0x01 (0001ms, 143066ms total)
T0E4C 8585:216 JLINK_ReadMemU8(0xE0002FEC, 0x0001 Items, ...) -- CPU is running -- CPU_ReadMem(1 bytes @ 0xE0002FEC) - Data: 00  returns 0x01 (0002ms, 143068ms total)
T0E4C 8585:218 JLINK_ReadMemU32(0xE00FF00C, 0x0001 Items, ...) -- CPU is running -- CPU_ReadMem(4 bytes @ 0xE00FF00C) - Data: 03 10 F0 FF  returns 0x01 (0001ms, 143069ms total)
T0E4C 8585:219 JLINK_ReadMemU8(0xE0000FF0, 0x0001 Items, ...) -- CPU is running -- CPU_ReadMem(1 bytes @ 0xE0000FF0) - Data: 0D  returns 0x01 (0001ms, 143070ms total)
T0E4C 8585:220 JLINK_ReadMemU8(0xE0000FF4, 0x0001 Items, ...) -- CPU is running -- CPU_ReadMem(1 bytes @ 0xE0000FF4) - Data: E0  returns 0x01 (0002ms, 143072ms total)
T0E4C 8585:222 JLINK_ReadMemU8(0xE0000FF8, 0x0001 Items, ...) -- CPU is running -- CPU_ReadMem(1 bytes @ 0xE0000FF8) - Data: 05  returns 0x01 (0001ms, 143073ms total)
T0E4C 8585:223 JLINK_ReadMemU8(0xE0000FFC, 0x0001 Items, ...) -- CPU is running -- CPU_ReadMem(1 bytes @ 0xE0000FFC) - Data: B1  returns 0x01 (0001ms, 143074ms total)
T0E4C 8585:224 JLINK_ReadMemU8(0xE0000FD0, 0x0001 Items, ...) -- CPU is running -- CPU_ReadMem(1 bytes @ 0xE0000FD0) - Data: 04  returns 0x01 (0001ms, 143075ms total)
T0E4C 8585:225 JLINK_ReadMemU8(0xE0000FD4, 0x0001 Items, ...) -- CPU is running -- CPU_ReadMem(1 bytes @ 0xE0000FD4) - Data: 00  returns 0x01 (0002ms, 143077ms total)
T0E4C 8585:227 JLINK_ReadMemU8(0xE0000FD8, 0x0001 Items, ...) -- CPU is running -- CPU_ReadMem(1 bytes @ 0xE0000FD8) - Data: 00  returns 0x01 (0001ms, 143078ms total)
T0E4C 8585:228 JLINK_ReadMemU8(0xE0000FDC, 0x0001 Items, ...) -- CPU is running -- CPU_ReadMem(1 bytes @ 0xE0000FDC) - Data: 00  returns 0x01 (0002ms, 143080ms total)
T0E4C 8585:230 JLINK_ReadMemU8(0xE0000FE0, 0x0001 Items, ...) -- CPU is running -- CPU_ReadMem(1 bytes @ 0xE0000FE0) - Data: 01  returns 0x01 (0001ms, 143081ms total)
T0E4C 8585:231 JLINK_ReadMemU8(0xE0000FE4, 0x0001 Items, ...) -- CPU is running -- CPU_ReadMem(1 bytes @ 0xE0000FE4) - Data: B0  returns 0x01 (0001ms, 143082ms total)
T0E4C 8585:232 JLINK_ReadMemU8(0xE0000FE8, 0x0001 Items, ...) -- CPU is running -- CPU_ReadMem(1 bytes @ 0xE0000FE8) - Data: 2B  returns 0x01 (0002ms, 143084ms total)
T0E4C 8585:234 JLINK_ReadMemU8(0xE0000FEC, 0x0001 Items, ...) -- CPU is running -- CPU_ReadMem(1 bytes @ 0xE0000FEC) - Data: 00  returns 0x01 (0001ms, 143085ms total)
T0E4C 8585:235 JLINK_ReadMemU32(0xE00FF010, 0x0001 Items, ...) -- CPU is running -- CPU_ReadMem(4 bytes @ 0xE00FF010) - Data: 03 10 F4 FF  returns 0x01 (0001ms, 143086ms total)
T0E4C 8585:236 JLINK_ReadMemU8(0xE0040FF0, 0x0001 Items, ...) -- CPU is running -- CPU_ReadMem(1 bytes @ 0xE0040FF0) - Data: 0D  returns 0x01 (0001ms, 143087ms total)
T0E4C 8585:237 JLINK_ReadMemU8(0xE0040FF4, 0x0001 Items, ...) -- CPU is running -- CPU_ReadMem(1 bytes @ 0xE0040FF4) - Data: 90  returns 0x01 (0001ms, 143088ms total)
T0E4C 8585:238 JLINK_ReadMemU8(0xE0040FF8, 0x0001 Items, ...) -- CPU is running -- CPU_ReadMem(1 bytes @ 0xE0040FF8) - Data: 05  returns 0x01 (0002ms, 143090ms total)
T0E4C 8585:240 JLINK_ReadMemU8(0xE0040FFC, 0x0001 Items, ...) -- CPU is running -- CPU_ReadMem(1 bytes @ 0xE0040FFC) - Data: B1  returns 0x01 (0001ms, 143091ms total)
T0E4C 8585:241 JLINK_ReadMemU8(0xE0040FD0, 0x0001 Items, ...) -- CPU is running -- CPU_ReadMem(1 bytes @ 0xE0040FD0) - Data: 04  returns 0x01 (0001ms, 143092ms total)
T0E4C 8585:242 JLINK_ReadMemU8(0xE0040FD4, 0x0001 Items, ...) -- CPU is running -- CPU_ReadMem(1 bytes @ 0xE0040FD4) - Data: 00  returns 0x01 (0001ms, 143093ms total)
T0E4C 8585:243 JLINK_ReadMemU8(0xE0040FD8, 0x0001 Items, ...) -- CPU is running -- CPU_ReadMem(1 bytes @ 0xE0040FD8) - Data: 00  returns 0x01 (0002ms, 143095ms total)
T0E4C 8585:245 JLINK_ReadMemU8(0xE0040FDC, 0x0001 Items, ...) -- CPU is running -- CPU_ReadMem(1 bytes @ 0xE0040FDC) - Data: 00  returns 0x01 (0001ms, 143096ms total)
T0E4C 8585:246 JLINK_ReadMemU8(0xE0040FE0, 0x0001 Items, ...) -- CPU is running -- CPU_ReadMem(1 bytes @ 0xE0040FE0) - Data: 23  returns 0x01 (0001ms, 143097ms total)
T0E4C 8585:247 JLINK_ReadMemU8(0xE0040FE4, 0x0001 Items, ...) -- CPU is running -- CPU_ReadMem(1 bytes @ 0xE0040FE4) - Data: B9  returns 0x01 (0001ms, 143098ms total)
T0E4C 8585:248 JLINK_ReadMemU8(0xE0040FE8, 0x0001 Items, ...) -- CPU is running -- CPU_ReadMem(1 bytes @ 0xE0040FE8) - Data: 2B  returns 0x01 (0001ms, 143099ms total)
T0E4C 8585:249 JLINK_ReadMemU8(0xE0040FEC, 0x0001 Items, ...) -- CPU is running -- CPU_ReadMem(1 bytes @ 0xE0040FEC) - Data: 00  returns 0x01 (0001ms, 143100ms total)
T0E4C 8585:250 JLINK_ReadMemU32(0xE00FF014, 0x0001 Items, ...) -- CPU is running -- CPU_ReadMem(4 bytes @ 0xE00FF014) - Data: 02 20 F4 FF  returns 0x01 (0001ms, 143101ms total)
T0E4C 8585:251 JLINK_ReadMemU32(0xE00FF018, 0x0001 Items, ...) -- CPU is running -- CPU_ReadMem(4 bytes @ 0xE00FF018) - Data: 00 00 00 00  returns 0x01 (0002ms, 143103ms total)
T0E4C 8585:253 JLINK_ReadMem (0xE0001000, 0x0004 Bytes, ...) -- CPU is running -- CPU_ReadMem(4 bytes @ 0xE0001000) - Data: 01 00 00 40  returns 0x00 (0001ms, 143104ms total)
T0E4C 8585:254 JLINK_ReadMem (0xE0001000, 0x0004 Bytes, ...) -- CPU is running -- CPU_ReadMem(4 bytes @ 0xE0001000) - Data: 01 00 00 40  returns 0x00 (0001ms, 143105ms total)
T0E4C 8585:255 JLINK_ReadMem (0xE0001028, 0x0004 Bytes, ...) -- CPU is running -- CPU_ReadMem(4 bytes @ 0xE0001028) - Data: 00 00 00 00  returns 0x00 (0002ms, 143107ms total)
T0E4C 8585:257 JLINK_WriteMem(0xE0001028, 0x0004 Bytes, ...) - Data: 00 01 00 00 -- CPU is running -- CPU_WriteMem(4 bytes @ 0xE0001028)  returns 0x04 (0001ms, 143108ms total)
T0E4C 8585:258 JLINK_ReadMem (0xE0001028, 0x0004 Bytes, ...) -- CPU is running -- CPU_ReadMem(4 bytes @ 0xE0001028) - Data: 00 00 00 00  returns 0x00 (0001ms, 143109ms total)
T0E4C 8585:259 JLINK_ReadMem (0xE0001038, 0x0004 Bytes, ...) -- CPU is running -- CPU_ReadMem(4 bytes @ 0xE0001038) - Data: 00 02 00 00  returns 0x00 (0001ms, 143110ms total)
T0E4C 8585:260 JLINK_WriteMem(0xE0001038, 0x0004 Bytes, ...) - Data: 00 03 00 00 -- CPU is running -- CPU_WriteMem(4 bytes @ 0xE0001038)  returns 0x04 (0001ms, 143111ms total)
T0E4C 8585:261 JLINK_ReadMem (0xE0001038, 0x0004 Bytes, ...) -- CPU is running -- CPU_ReadMem(4 bytes @ 0xE0001038) - Data: 00 03 00 00  returns 0x00 (0001ms, 143112ms total)
T0E4C 8585:262 JLINK_ReadMem (0xE0001048, 0x0004 Bytes, ...) -- CPU is running -- CPU_ReadMem(4 bytes @ 0xE0001048) - Data: 00 00 00 00  returns 0x00 (0002ms, 143114ms total)
T0E4C 8585:264 JLINK_WriteMem(0xE0001048, 0x0004 Bytes, ...) - Data: 00 01 00 00 -- CPU is running -- CPU_WriteMem(4 bytes @ 0xE0001048)  returns 0x04 (0001ms, 143115ms total)
T0E4C 8585:265 JLINK_ReadMem (0xE0001048, 0x0004 Bytes, ...) -- CPU is running -- CPU_ReadMem(4 bytes @ 0xE0001048) - Data: 00 00 00 00  returns 0x00 (0002ms, 143117ms total)
T0E4C 8585:267 JLINK_ReadMem (0xE0001058, 0x0004 Bytes, ...) -- CPU is running -- CPU_ReadMem(4 bytes @ 0xE0001058) - Data: 00 00 00 00  returns 0x00 (0001ms, 143118ms total)
T0E4C 8585:268 JLINK_WriteMem(0xE0001058, 0x0004 Bytes, ...) - Data: 00 01 00 00 -- CPU is running -- CPU_WriteMem(4 bytes @ 0xE0001058)  returns 0x04 (0001ms, 143119ms total)
T0E4C 8585:269 JLINK_ReadMem (0xE0001058, 0x0004 Bytes, ...) -- CPU is running -- CPU_ReadMem(4 bytes @ 0xE0001058) - Data: 00 00 00 00  returns 0x00 (0001ms, 143120ms total)
T0E4C 8585:270 JLINK_ReadMem (0xE0001024, 0x0004 Bytes, ...) -- CPU is running -- CPU_ReadMem(4 bytes @ 0xE0001024) - Data: 00 00 00 00  returns 0x00 (0002ms, 143122ms total)
T0E4C 8585:272 JLINK_WriteMem(0xE0001024, 0x0004 Bytes, ...) - Data: 1F 00 00 00 -- CPU is running -- CPU_WriteMem(4 bytes @ 0xE0001024)  returns 0x04 (0001ms, 143123ms total)
T0E4C 8585:273 JLINK_ReadMem (0xE0001024, 0x0004 Bytes, ...) -- CPU is running -- CPU_ReadMem(4 bytes @ 0xE0001024) - Data: 0F 00 00 00  returns 0x00 (0001ms, 143124ms total)
T0E4C 8585:274 JLINK_ReadMem (0xE0001034, 0x0004 Bytes, ...) -- CPU is running -- CPU_ReadMem(4 bytes @ 0xE0001034) - Data: 00 00 00 00  returns 0x00 (0001ms, 143125ms total)
T0E4C 8585:275 JLINK_WriteMem(0xE0001034, 0x0004 Bytes, ...) - Data: 1F 00 00 00 -- CPU is running -- CPU_WriteMem(4 bytes @ 0xE0001034)  returns 0x04 (0001ms, 143126ms total)
T0E4C 8585:276 JLINK_ReadMem (0xE0001034, 0x0004 Bytes, ...) -- CPU is running -- CPU_ReadMem(4 bytes @ 0xE0001034) - Data: 0F 00 00 00  returns 0x00 (0001ms, 143127ms total)
T0E4C 8585:277 JLINK_ReadMem (0xE0001044, 0x0004 Bytes, ...) -- CPU is running -- CPU_ReadMem(4 bytes @ 0xE0001044) - Data: 00 00 00 00  returns 0x00 (0001ms, 143128ms total)
T0E4C 8585:278 JLINK_WriteMem(0xE0001044, 0x0004 Bytes, ...) - Data: 1F 00 00 00 -- CPU is running -- CPU_WriteMem(4 bytes @ 0xE0001044)  returns 0x04 (0002ms, 143130ms total)
T0E4C 8585:280 JLINK_ReadMem (0xE0001044, 0x0004 Bytes, ...) -- CPU is running -- CPU_ReadMem(4 bytes @ 0xE0001044) - Data: 0F 00 00 00  returns 0x00 (0001ms, 143131ms total)
T0E4C 8585:281 JLINK_ReadMem (0xE0001054, 0x0004 Bytes, ...) -- CPU is running -- CPU_ReadMem(4 bytes @ 0xE0001054) - Data: 00 00 00 00  returns 0x00 (0001ms, 143132ms total)
T0E4C 8585:282 JLINK_WriteMem(0xE0001054, 0x0004 Bytes, ...) - Data: 1F 00 00 00 -- CPU is running -- CPU_WriteMem(4 bytes @ 0xE0001054)  returns 0x04 (0001ms, 143133ms total)
T0E4C 8585:283 JLINK_ReadMem (0xE0001054, 0x0004 Bytes, ...) -- CPU is running -- CPU_ReadMem(4 bytes @ 0xE0001054) - Data: 0F 00 00 00  returns 0x00 (0002ms, 143135ms total)
T0E4C 8585:285 JLINK_ReadMem (0xE0001028, 0x0004 Bytes, ...) -- CPU is running -- CPU_ReadMem(4 bytes @ 0xE0001028) - Data: 00 00 00 00  returns 0x00 (0001ms, 143136ms total)
T0E4C 8585:286 JLINK_ReadMem (0xE0001038, 0x0004 Bytes, ...) -- CPU is running -- CPU_ReadMem(4 bytes @ 0xE0001038) - Data: 00 03 00 00  returns 0x00 (0001ms, 143137ms total)
T0E4C 8585:287 JLINK_ReadMem (0xE0001048, 0x0004 Bytes, ...) -- CPU is running -- CPU_ReadMem(4 bytes @ 0xE0001048) - Data: 00 00 00 00  returns 0x00 (0001ms, 143138ms total)
T0E4C 8585:288 JLINK_ReadMem (0xE0001058, 0x0004 Bytes, ...) -- CPU is running -- CPU_ReadMem(4 bytes @ 0xE0001058) - Data: 00 00 00 00  returns 0x00 (0002ms, 143140ms total)
T0E4C 8585:290 JLINK_WriteMem(0xE0001020, 0x0004 Bytes, ...) - Data: 00 00 00 00 -- CPU is running -- CPU_WriteMem(4 bytes @ 0xE0001020)  returns 0x04 (0001ms, 143141ms total)
T0E4C 8585:291 JLINK_WriteMem(0xE0001024, 0x0004 Bytes, ...) - Data: 00 00 00 00 -- CPU is running -- CPU_WriteMem(4 bytes @ 0xE0001024)  returns 0x04 (0001ms, 143142ms total)
T0E4C 8585:292 JLINK_WriteMem(0xE0001028, 0x0004 Bytes, ...) - Data: 00 00 00 00 -- CPU is running -- CPU_WriteMem(4 bytes @ 0xE0001028)  returns 0x04 (0001ms, 143143ms total)
T0E4C 8585:293 JLINK_WriteMem(0xE0001030, 0x0004 Bytes, ...) - Data: 00 00 00 00 -- CPU is running -- CPU_WriteMem(4 bytes @ 0xE0001030)  returns 0x04 (0001ms, 143144ms total)
T0E4C 8585:294 JLINK_WriteMem(0xE0001034, 0x0004 Bytes, ...) - Data: 00 00 00 00 -- CPU is running -- CPU_WriteMem(4 bytes @ 0xE0001034)  returns 0x04 (0001ms, 143145ms total)
T0E4C 8585:295 JLINK_WriteMem(0xE0001038, 0x0004 Bytes, ...) - Data: 00 00 00 00 -- CPU is running -- CPU_WriteMem(4 bytes @ 0xE0001038)  returns 0x04 (0001ms, 143146ms total)
T0E4C 8585:296 JLINK_WriteMem(0xE0001040, 0x0004 Bytes, ...) - Data: 00 00 00 00 -- CPU is running -- CPU_WriteMem(4 bytes @ 0xE0001040)  returns 0x04 (0002ms, 143148ms total)
T0E4C 8585:298 JLINK_WriteMem(0xE0001044, 0x0004 Bytes, ...) - Data: 00 00 00 00 -- CPU is running -- CPU_WriteMem(4 bytes @ 0xE0001044)  returns 0x04 (0001ms, 143149ms total)
T0E4C 8585:299 JLINK_WriteMem(0xE0001048, 0x0004 Bytes, ...) - Data: 00 00 00 00 -- CPU is running -- CPU_WriteMem(4 bytes @ 0xE0001048)  returns 0x04 (0001ms, 143150ms total)
T0E4C 8585:300 JLINK_WriteMem(0xE0001050, 0x0004 Bytes, ...) - Data: 00 00 00 00 -- CPU is running -- CPU_WriteMem(4 bytes @ 0xE0001050)  returns 0x04 (0001ms, 143151ms total)
T0E4C 8585:301 JLINK_WriteMem(0xE0001054, 0x0004 Bytes, ...) - Data: 00 00 00 00 -- CPU is running -- CPU_WriteMem(4 bytes @ 0xE0001054)  returns 0x04 (0001ms, 143152ms total)
T0E4C 8585:302 JLINK_WriteMem(0xE0001058, 0x0004 Bytes, ...) - Data: 00 00 00 00 -- CPU is running -- CPU_WriteMem(4 bytes @ 0xE0001058)  returns 0x04 (0001ms, 143153ms total)
T0E4C 8585:304 JLINK_WriteVectorCatch(0x00000001) -- CPU is running -- CPU_ReadMem(4 bytes @ 0xE000EDFC) -- CPU is running -- CPU_WriteMem(4 bytes @ 0xE000EDFC)  returns 0x00 (0002ms, 143155ms total)
T0E4C 8585:306 JLINK_Reset() -- CPU_ReadMem(16 bytes @ 0x20000000) -- CPU_WriteMem(16 bytes @ 0x20000000) -- CPU_ReadMem(4 bytes @ 0xE000EDFC) -- CPU_WriteMem(4 bytes @ 0xE000EDFC) -- CPU_WriteMem(4 bytes @ 0xE000ED0C) -- CPU_ReadMem(4 bytes @ 0xE000EDF0) -- CPU_ReadMem(4 bytes @ 0xE000EDF0) -- CPU_WriteMem(4 bytes @ 0xE000EDFC) -- CPU_WriteMem(16 bytes @ 0x20000000) -- CPU_WriteMem(4 bytes @ 0xE0002000) -- CPU_ReadMem(4 bytes @ 0xE000EDFC) -- CPU_ReadMem(4 bytes @ 0xE0001000) (0052ms, 143207ms total)
T0E4C 8585:358 JLINK_JTAG_GetDeviceID(DeviceIndex = 0)  returns 0x4BA00477 (0000ms, 143207ms total)
T0E4C 8585:358 JLINK_ReadMemU32(0x400E0740, 0x0001 Items, ...) -- CPU_ReadMem(4 bytes @ 0x400E0740) - Data: 60 09 90 28  returns 0x01 (0002ms, 143209ms total)
T0E4C 8585:360 JLINK_WriteMem(0x400E0A04, 0x0004 Bytes, ...) - Data: 09 00 00 5A -- CPU_WriteMem(4 bytes @ 0x400E0A04)  returns 0x04 (0001ms, 143210ms total)
T0E4C 8585:361 JLINK_ReadMem (0x400E0A08, 0x0004 Bytes, ...) -- CPU_ReadMem(4 bytes @ 0x400E0A08) - Data: 01 00 00 00  returns 0x00 (0001ms, 143211ms total)
T0E4C 8585:362 JLINK_WriteMem(0x400E0A04, 0x0004 Bytes, ...) - Data: 09 40 00 5A -- CPU_WriteMem(4 bytes @ 0x400E0A04)  returns 0x04 (0001ms, 143212ms total)
T0E4C 8585:363 JLINK_ReadMem (0x400E0A08, 0x0004 Bytes, ...) -- CPU_ReadMem(4 bytes @ 0x400E0A08) - Data: 01 00 00 00  returns 0x00 (0001ms, 143213ms total)
T0E4C 8585:364 JLINK_WriteMem(0x400E0A04, 0x0004 Bytes, ...) - Data: 09 80 00 5A -- CPU_WriteMem(4 bytes @ 0x400E0A04)  returns 0x04 (0002ms, 143215ms total)
T0E4C 8585:366 JLINK_ReadMem (0x400E0A08, 0x0004 Bytes, ...) -- CPU_ReadMem(4 bytes @ 0x400E0A08) - Data: 01 00 00 00  returns 0x00 (0001ms, 143216ms total)
T0E4C 8585:367 JLINK_WriteMem(0x400E0A04, 0x0004 Bytes, ...) - Data: 09 C0 00 5A -- CPU_WriteMem(4 bytes @ 0x400E0A04)  returns 0x04 (0001ms, 143217ms total)
T0E4C 8585:368 JLINK_ReadMem (0x400E0A08, 0x0004 Bytes, ...) -- CPU_ReadMem(4 bytes @ 0x400E0A08) - Data: 01 00 00 00  returns 0x00 (0001ms, 143218ms total)
T0E4C 8585:369 JLINK_WriteMem(0x400E0A04, 0x0004 Bytes, ...) - Data: 09 00 01 5A -- CPU_WriteMem(4 bytes @ 0x400E0A04)  returns 0x04 (0002ms, 143220ms total)
T0E4C 8585:371 JLINK_ReadMem (0x400E0A08, 0x0004 Bytes, ...) -- CPU_ReadMem(4 bytes @ 0x400E0A08) - Data: 01 00 00 00  returns 0x00 (0001ms, 143221ms total)
T0E4C 8585:372 JLINK_WriteMem(0x400E0A04, 0x0004 Bytes, ...) - Data: 09 40 01 5A -- CPU_WriteMem(4 bytes @ 0x400E0A04)  returns 0x04 (0001ms, 143222ms total)
T0E4C 8585:373 JLINK_ReadMem (0x400E0A08, 0x0004 Bytes, ...) -- CPU_ReadMem(4 bytes @ 0x400E0A08) - Data: 01 00 00 00  returns 0x00 (0001ms, 143223ms total)
T0E4C 8585:374 JLINK_WriteMem(0x400E0A04, 0x0004 Bytes, ...) - Data: 09 80 01 5A -- CPU_WriteMem(4 bytes @ 0x400E0A04)  returns 0x04 (0002ms, 143225ms total)
T0E4C 8585:376 JLINK_ReadMem (0x400E0A08, 0x0004 Bytes, ...) -- CPU_ReadMem(4 bytes @ 0x400E0A08) - Data: 01 00 00 00  returns 0x00 (0001ms, 143226ms total)
T0E4C 8585:377 JLINK_WriteMem(0x400E0A04, 0x0004 Bytes, ...) - Data: 09 C0 01 5A -- CPU_WriteMem(4 bytes @ 0x400E0A04)  returns 0x04 (0001ms, 143227ms total)
T0E4C 8585:378 JLINK_ReadMem (0x400E0A08, 0x0004 Bytes, ...) -- CPU_ReadMem(4 bytes @ 0x400E0A08) - Data: 01 00 00 00  returns 0x00 (0001ms, 143228ms total)
T0E4C 8585:379 JLINK_WriteMem(0x400E0A04, 0x0004 Bytes, ...) - Data: 09 00 02 5A -- CPU_WriteMem(4 bytes @ 0x400E0A04)  returns 0x04 (0001ms, 143229ms total)
T0E4C 8585:380 JLINK_ReadMem (0x400E0A08, 0x0004 Bytes, ...) -- CPU_ReadMem(4 bytes @ 0x400E0A08) - Data: 01 00 00 00  returns 0x00 (0002ms, 143231ms total)
T0E4C 8585:382 JLINK_WriteMem(0x400E0A04, 0x0004 Bytes, ...) - Data: 09 40 02 5A -- CPU_WriteMem(4 bytes @ 0x400E0A04)  returns 0x04 (0001ms, 143232ms total)
T0E4C 8585:383 JLINK_ReadMem (0x400E0A08, 0x0004 Bytes, ...) -- CPU_ReadMem(4 bytes @ 0x400E0A08) - Data: 01 00 00 00  returns 0x00 (0001ms, 143233ms total)
T0E4C 8585:384 JLINK_WriteMem(0x400E0A04, 0x0004 Bytes, ...) - Data: 09 80 02 5A -- CPU_WriteMem(4 bytes @ 0x400E0A04)  returns 0x04 (0001ms, 143234ms total)
T0E4C 8585:385 JLINK_ReadMem (0x400E0A08, 0x0004 Bytes, ...) -- CPU_ReadMem(4 bytes @ 0x400E0A08) - Data: 01 00 00 00  returns 0x00 (0001ms, 143235ms total)
T0E4C 8585:386 JLINK_WriteMem(0x400E0A04, 0x0004 Bytes, ...) - Data: 09 C0 02 5A -- CPU_WriteMem(4 bytes @ 0x400E0A04)  returns 0x04 (0001ms, 143236ms total)
T0E4C 8585:387 JLINK_ReadMem (0x400E0A08, 0x0004 Bytes, ...) -- CPU_ReadMem(4 bytes @ 0x400E0A08) - Data: 01 00 00 00  returns 0x00 (0002ms, 143238ms total)
T0E4C 8585:389 JLINK_WriteMem(0x400E0A04, 0x0004 Bytes, ...) - Data: 09 00 03 5A -- CPU_WriteMem(4 bytes @ 0x400E0A04)  returns 0x04 (0001ms, 143239ms total)
T0E4C 8585:390 JLINK_ReadMem (0x400E0A08, 0x0004 Bytes, ...) -- CPU_ReadMem(4 bytes @ 0x400E0A08) - Data: 01 00 00 00  returns 0x00 (0001ms, 143240ms total)
T0E4C 8585:391 JLINK_WriteMem(0x400E0A04, 0x0004 Bytes, ...) - Data: 09 40 03 5A -- CPU_WriteMem(4 bytes @ 0x400E0A04)  returns 0x04 (0001ms, 143241ms total)
T0E4C 8585:392 JLINK_ReadMem (0x400E0A08, 0x0004 Bytes, ...) -- CPU_ReadMem(4 bytes @ 0x400E0A08) - Data: 01 00 00 00  returns 0x00 (0001ms, 143242ms total)
T0E4C 8585:393 JLINK_WriteMem(0x400E0A04, 0x0004 Bytes, ...) - Data: 09 80 03 5A -- CPU_WriteMem(4 bytes @ 0x400E0A04)  returns 0x04 (0001ms, 143243ms total)
T0E4C 8585:394 JLINK_ReadMem (0x400E0A08, 0x0004 Bytes, ...) -- CPU_ReadMem(4 bytes @ 0x400E0A08) - Data: 01 00 00 00  returns 0x00 (0001ms, 143244ms total)
T0E4C 8585:395 JLINK_WriteMem(0x400E0A04, 0x0004 Bytes, ...) - Data: 09 C0 03 5A -- CPU_WriteMem(4 bytes @ 0x400E0A04)  returns 0x04 (0002ms, 143246ms total)
T0E4C 8585:397 JLINK_ReadMem (0x400E0A08, 0x0004 Bytes, ...) -- CPU_ReadMem(4 bytes @ 0x400E0A08) - Data: 01 00 00 00  returns 0x00 (0001ms, 143247ms total)
T0E4C 8585:398 JLINK_WriteMem(0x400E0A04, 0x0004 Bytes, ...) - Data: 05 00 00 5A -- CPU_WriteMem(4 bytes @ 0x400E0A04)  returns 0x04 (0001ms, 143248ms total)
T0E4C 8585:399 JLINK_ReadMem (0x400E0A08, 0x0004 Bytes, ...) -- CPU_ReadMem(4 bytes @ 0x400E0A08) - Data: 00 00 00 00  returns 0x00 (0001ms, 143249ms total)
T0E4C 8585:401 JLINK_ReadMem (0x400E0A08, 0x0004 Bytes, ...) -- CPU_ReadMem(4 bytes @ 0x400E0A08) - Data: 00 00 00 00  returns 0x00 (0001ms, 143250ms total)
T0E4C 8585:406 JLINK_ReadMem (0x400E0A08, 0x0004 Bytes, ...) -- CPU_ReadMem(4 bytes @ 0x400E0A08) - Data: 00 00 00 00  returns 0x00 (0001ms, 143251ms total)
T0E4C 8585:423 JLINK_ReadMem (0x400E0A08, 0x0004 Bytes, ...) -- CPU_ReadMem(4 bytes @ 0x400E0A08) - Data: 01 00 00 00  returns 0x00 (0001ms, 143252ms total)
T0E4C 8585:424 JLINK_WriteVectorCatch(0x00000001) -- CPU_ReadMem(4 bytes @ 0xE000EDFC)  returns 0x00 (0001ms, 143253ms total)
T0E4C 8585:425 JLINK_Reset() -- CPU_ReadMem(16 bytes @ 0x20000000) -- CPU_WriteMem(16 bytes @ 0x20000000) -- CPU_ReadMem(4 bytes @ 0xE000EDFC) -- CPU_WriteMem(4 bytes @ 0xE000EDFC) -- CPU_WriteMem(4 bytes @ 0xE0001004) -- CPU_WriteMem(4 bytes @ 0xE000ED0C) -- CPU_ReadMem(4 bytes @ 0xE000EDF0) -- CPU_ReadMem(4 bytes @ 0xE000EDF0) -- CPU_WriteMem(4 bytes @ 0xE000EDFC) -- CPU_WriteMem(16 bytes @ 0x20000000) -- CPU_WriteMem(4 bytes @ 0xE0002000) -- CPU_ReadMem(4 bytes @ 0xE000EDFC)
 -- CPU_ReadMem(4 bytes @ 0xE0001000) (0099ms, 143352ms total)
T0E4C 8585:524 JLINK_WriteVectorCatch(0x00000000) -- CPU_ReadMem(4 bytes @ 0xE000EDFC) -- CPU_WriteMem(4 bytes @ 0xE000EDFC)  returns 0x00 (0002ms, 143354ms total)
T0E4C 8585:526 JLINK_Go() -- CPU_WriteMem(4 bytes @ 0xE0001004) (0007ms, 143361ms total)
T0E4C 8585:533 JLINK_ExecCommand("ProjectFile = D:\my documents\elektronika\ARM programi\diploma\DAQ\USB_DAQ\jlink.config", ...)  returns 0x00 (0000ms, 143361ms total)
T0E4C 8585:569 JLINK_ExecCommand("Device = AT91SAM3S4B", ...)Device "ATSAM3S4B" selected (256 KB flash, 48 KB RAM).  returns 0x00 (0001ms, 143362ms total)
T0E4C 8585:570 JLINK_TIF_Select(JLINKARM_TIF_JTAG)  returns 0x00 (0000ms, 143362ms total)
T0E4C 8585:570 JLINK_GetIdData(...) ScanLen=4 NumDevices=1 aId[0]=0x4BA00477 aIrRead[0]=0 aScanLen[0]=0 aScanRead[0]=0 (0000ms, 143362ms total)
T0E4C 8585:570 JLINK_ConfigJTAG(IRPre = 0, DRPre = 0) (0000ms, 143362ms total)
T0E4C 8585:570 JLINK_SetSpeed(0) >0x30 JTAG> (0004ms, 143366ms total)
T0E4C 8585:574 JLINK_Connect() >0x2F8 JTAG>TotalIRLen = 4, IRPrint = 0x01 >0x30 JTAG> >0x210 JTAG> >0x70 JTAG> >0x40 JTAG> >0x40 JTAG> >0x40 JTAG> >0x48 JTAG> >0x78 JTAG> >0x40 JTAG> >0x30 JTAG> >0x40 JTAG> >0x40 JTAG> >0x30 JTAG> >0x40 JTAG> >0x48 JTAG>Found Cortex-M3 r2p0, Little endian. -- CPU_WriteMem(4 bytes @ 0xE0002000) -- CPU_ReadMem(4 bytes @ 0xE000EDF0) -- CPU_ReadMem(4 bytes @ 0xE0002000)FPUnit: 6 code (BP) slots and 2 literal slots -- CPU_ReadMem(4 bytes @ 0xE0001000)
 -- CPU_WriteMem(4 bytes @ 0xE0001000) -- CPU_ReadMem(4 bytes @ 0xE00FF010)TPIU fitted. -- CPU_ReadMem(4 bytes @ 0xE00FF014) -- CPU_ReadMem(4 bytes @ 0xE00FF018)  returns 0x00 (0022ms, 143388ms total)
T0E4C 8585:599 JLINK_WriteVectorCatch(0x00000001) -- CPU is running -- CPU_ReadMem(4 bytes @ 0xE000EDFC) -- CPU is running -- CPU_WriteMem(4 bytes @ 0xE000EDFC)  returns 0x00 (0002ms, 143390ms total)
T0E4C 8585:601 JLINK_Reset() -- CPU_ReadMem(16 bytes @ 0x20000000) -- CPU_WriteMem(16 bytes @ 0x20000000) -- CPU_ReadMem(4 bytes @ 0xE000EDFC) -- CPU_WriteMem(4 bytes @ 0xE000EDFC) -- CPU_WriteMem(4 bytes @ 0xE000ED0C) -- CPU_ReadMem(4 bytes @ 0xE000EDF0) -- CPU_ReadMem(4 bytes @ 0xE000EDF0) -- CPU_WriteMem(4 bytes @ 0xE000EDFC) -- CPU_WriteMem(16 bytes @ 0x20000000) -- CPU_WriteMem(4 bytes @ 0xE0002000) -- CPU_ReadMem(4 bytes @ 0xE000EDFC) -- CPU_ReadMem(4 bytes @ 0xE0001000) (0030ms, 143420ms total)
T0E4C 8585:632 JLINK_JTAG_GetDeviceID(DeviceIndex = 0)  returns 0x4BA00477 (0000ms, 143420ms total)
T0E4C 8585:632 JLINK_ReadMemU32(0x400E0740, 0x0001 Items, ...) -- CPU_ReadMem(4 bytes @ 0x400E0740) - Data: 60 09 90 28  returns 0x01 (0001ms, 143421ms total)
T0E4C 8585:639 JLINK_ReadMemHW(0x00408000, 0x0100 Bytes, ...) -- CPU_ReadMem(256 bytes @ 0x00408000) - Data: FF FF FF FF FF FF FF FF FF FF FF FF FF FF FF FF ...  returns 0x00 (0040ms, 143461ms total)
T0E4C 8585:679 JLINK_ReadMemHW(0x00408900, 0x0100 Bytes, ...) -- CPU_ReadMem(256 bytes @ 0x00408900) - Data: FF FF FF FF FF FF FF FF FF FF FF FF FF FF FF FF ...  returns 0x00 (0003ms, 143464ms total)
T0E4C 8585:689 JLINK_BeginDownload(Flags = 0x00) (0000ms, 143464ms total)
T0E4C 8585:689 JLINK_WriteMem(0x00400000, 0x0100 Bytes, ...) - Data: 58 2C 00 20 81 30 40 00 7D 30 40 00 7D 30 40 00 ...  returns 0x100 (0000ms, 143464ms total)
T0E4C 8585:689 JLINK_WriteMem(0x00400100, 0x0100 Bytes, ...) - Data: D3 73 59 10 00 D1 08 BD 04 4A 00 2A FB D0 90 47 ...  returns 0x100 (0000ms, 143464ms total)
T0E4C 8585:689 JLINK_WriteMem(0x00400200, 0x0100 Bytes, ...) - Data: 08 0C 00 20 0C 00 00 20 15 15 40 00 00 00 01 40 ...  returns 0x100 (0000ms, 143464ms total)
T0E4C 8585:689 JLINK_WriteMem(0x00400300, 0x0100 Bytes, ...) - Data: 04 D8 7D 4A D4 54 01 33 7A 4A 13 70 0D 2C 40 F0 ...  returns 0x100 (0000ms, 143464ms total)
T0E4C 8585:689 JLINK_WriteMem(0x00400400, 0x0100 Bytes, ...) - Data: 40 4B 58 60 03 A8 47 49 47 4B 98 47 01 46 03 A8 ...  returns 0x100 (0000ms, 143464ms total)
T0E4C 8585:689 JLINK_WriteMem(0x00400500, 0x0100 Bytes, ...) - Data: 09 34 40 00 18 0C 00 20 8C 7C 40 00 BD 0E 40 00 ...  returns 0x100 (0000ms, 143464ms total)
T0E4C 8585:689 JLINK_WriteMem(0x00400600, 0x0100 Bytes, ...) - Data: 13 48 14 4B 98 47 02 90 01 9A 02 9B 03 A8 12 49 ...  returns 0x100 (0000ms, 143464ms total)
T0E4C 8585:689 JLINK_WriteMem(0x00400700, 0x0100 Bytes, ...) - Data: 55 17 40 00 A9 17 40 00 D9 17 40 00 02 3F 0F 00 ...  returns 0x100 (0000ms, 143464ms total)
T0E4C 8585:689 JLINK_WriteMem(0x00400800, 0x0100 Bytes, ...) - Data: 1D 4B 1B 78 13 F0 80 0F 12 D0 03 F0 60 03 20 2B ...  returns 0x100 (0000ms, 143464ms total)
T0E4C 8585:689 JLINK_WriteMem(0x00400900, 0x0100 Bytes, ...) - Data: 08 D2 00 2D 46 D0 01 22 28 4B 1A 70 BF F3 5F 8F ...  returns 0x100 (0000ms, 143464ms total)
T0E4C 8585:689 JLINK_WriteMem(0x00400A00, 0x0100 Bytes, ...) - Data: 64 0A 00 20 89 08 40 00 08 B5 00 20 01 4B 98 47 ...  returns 0x100 (0000ms, 143464ms total)
T0E4C 8585:689 JLINK_WriteMem(0x00400B00, 0x0100 Bytes, ...) - Data: 02 B0 10 BD B0 00 00 20 60 0A 00 20 F4 0A 00 20 ...  returns 0x100 (0000ms, 143464ms total)
T0E4C 8585:689 JLINK_WriteMem(0x00400C00, 0x0100 Bytes, ...) - Data: 74 0A 00 20 D9 2D 40 00 4C 0A 00 20 F4 0A 00 20 ...  returns 0x100 (0000ms, 143464ms total)
T0E4C 8585:689 JLINK_WriteMem(0x00400D00, 0x0100 Bytes, ...) - Data: 01 01 38 BF 00 21 32 F8 11 00 40 2B 10 D1 12 4A ...  returns 0x100 (0000ms, 143464ms total)
T0E4C 8585:689 JLINK_WriteMem(0x00400E00, 0x0100 Bytes, ...) - Data: C4 09 00 20 08 B5 01 46 00 20 01 4B 98 47 08 BD ...  returns 0x100 (0000ms, 143464ms total)
T0E4C 8585:689 JLINK_WriteMem(0x00400F00, 0x0100 Bytes, ...) - Data: 00 20 70 47 00 20 70 47 00 20 70 47 00 20 70 47 ...  returns 0x100 (0000ms, 143464ms total)
T0E4C 8585:689 JLINK_WriteMem(0x00401000, 0x0100 Bytes, ...) - Data: 80 46 10 4B 98 47 03 46 C8 B1 0F 4B 1C 68 05 26 ...  returns 0x100 (0000ms, 143464ms total)
T0E4C 8585:689 JLINK_WriteMem(0x00401100, 0x0100 Bytes, ...) - Data: 72 4A D2 88 00 2A 40 F0 E5 81 DB E1 13 F0 1F 03 ...  returns 0x100 (0000ms, 143464ms total)
T0E4C 8585:689 JLINK_WriteMem(0x00401200, 0x0100 Bytes, ...) - Data: 33 68 1B 79 AB 42 17 D9 28 46 00 21 36 4B 98 47 ...  returns 0x100 (0000ms, 143464ms total)
T0E4C 8585:689 JLINK_WriteMem(0x00401300, 0x0100 Bytes, ...) - Data: 00 2B 31 D1 78 4B 98 47 00 28 2F D0 75 4B 9A 78 ...  returns 0x100 (0000ms, 143464ms total)
T0E4C 8585:689 JLINK_WriteMem(0x00401400, 0x0100 Bytes, ...) - Data: 20 79 42 4B 98 47 04 46 08 E0 00 24 06 E0 00 24 ...  returns 0x100 (0000ms, 143464ms total)
T0E4C 8585:689 JLINK_WriteMem(0x00401500, 0x0100 Bytes, ...) - Data: 95 0F 40 00 01 2D 40 00 2D 2F 40 00 15 2C 40 00 ...  returns 0x100 (0000ms, 143464ms total)
T0E4C 8585:689 JLINK_WriteMem(0x00401600, 0x0100 Bytes, ...) - Data: 23 EA 02 03 43 67 0F E0 03 6F 01 6F 0B 40 23 EA ...  returns 0x100 (0000ms, 143464ms total)
T0E4C 8585:689 JLINK_WriteMem(0x00401700, 0x0100 Bytes, ...) - Data: 08 0F 09 D1 4F F4 00 63 11 49 01 E0 01 3B 19 D0 ...  returns 0x100 (0000ms, 143464ms total)
T0E4C 8585:689 JLINK_WriteMem(0x00401800, 0x0100 Bytes, ...) - Data: 01 23 83 40 1A 40 93 42 19 D0 01 23 03 FA 00 F0 ...  returns 0x100 (0000ms, 143464ms total)
T0E4C 8585:689 JLINK_WriteMem(0x00401900, 0x0100 Bytes, ...) - Data: BF F3 5F 8F 15 4A 10 70 15 4A 90 78 01 38 90 70 ...  returns 0x100 (0000ms, 143464ms total)
T0E4C 8585:689 JLINK_WriteMem(0x00401A00, 0x0100 Bytes, ...) - Data: 70 47 00 BF CD 0B 00 20 00 40 03 40 08 B5 02 4B ...  returns 0x100 (0000ms, 143464ms total)
T0E4C 8585:689 JLINK_WriteMem(0x00401B00, 0x0100 Bytes, ...) - Data: 38 BF 00 20 72 B6 BF F3 5F 8F 00 22 42 4B 1A 70 ...  returns 0x100 (0000ms, 143464ms total)
T0E4C 8585:689 JLINK_WriteMem(0x00401C00, 0x0100 Bytes, ...) - Data: 0D 1A 40 00 65 19 40 00 CA 0B 00 20 3C 0C 00 20 ...  returns 0x100 (0000ms, 143464ms total)
T0E4C 8585:689 JLINK_WriteMem(0x00401D00, 0x0100 Bytes, ...) - Data: 03 93 03 9B 13 2B 06 D8 00 BF 03 9B 01 33 03 93 ...  returns 0x100 (0001ms, 143465ms total)
T0E4C 8585:690 JLINK_WriteMem(0x00401E00, 0x0100 Bytes, ...) - Data: 83 03 73 74 E1 B1 80 00 00 F1 40 20 00 F5 40 30 ...  returns 0x100 (0000ms, 143465ms total)
T0E4C 8585:690 JLINK_WriteMem(0x00401F00, 0x0100 Bytes, ...) - Data: 1B 6B C3 F3 0A 43 08 2B 1C D0 76 4B 1A 6B 02 92 ...  returns 0x100 (0000ms, 143465ms total)
T0E4C 8585:690 JLINK_WriteMem(0x00402000, 0x0100 Bytes, ...) - Data: 13 2B F8 D9 00 23 42 4A 13 80 42 4A 13 80 02 22 ...  returns 0x100 (0000ms, 143465ms total)
T0E4C 8585:690 JLINK_WriteMem(0x00402100, 0x0100 Bytes, ...) - Data: 7D 19 40 00 3B 0C 00 20 E9 10 40 00 3C 0C 00 20 ...  returns 0x100 (0000ms, 143465ms total)
T0E4C 8585:690 JLINK_WriteMem(0x00402200, 0x0100 Bytes, ...) - Data: 98 47 58 4B 1A 6B 12 92 12 9A 42 F0 4F 02 12 92 ...  returns 0x100 (0000ms, 143465ms total)
T0E4C 8585:690 JLINK_WriteMem(0x00402300, 0x0100 Bytes, ...) - Data: 01 93 01 9B 13 2B F8 D9 E6 E2 5F FA 83 F8 91 69 ...  returns 0x100 (0000ms, 143465ms total)
T0E4C 8585:690 JLINK_WriteMem(0x00402400, 0x0100 Bytes, ...) - Data: 13 63 00 23 19 93 19 9B 13 2B 06 D8 00 BF 19 9B ...  returns 0x100 (0000ms, 143465ms total)
T0E4C 8585:690 JLINK_WriteMem(0x00402500, 0x0100 Bytes, ...) - Data: 5F 8F 00 21 3A 4A 11 70 37 4A 55 61 2B B9 01 22 ...  returns 0x100 (0000ms, 143465ms total)
T0E4C 8585:690 JLINK_WriteMem(0x00402600, 0x0100 Bytes, ...) - Data: 70 B9 99 F8 11 30 6F F3 C7 13 89 F8 11 30 D9 F8 ...  returns 0x100 (0000ms, 143465ms total)
T0E4C 8585:690 JLINK_WriteMem(0x00402700, 0x0100 Bytes, ...) - Data: 14 34 04 2B 7F F4 01 AE DB E0 26 4B DB 69 13 F4 ...  returns 0x100 (0000ms, 143465ms total)
T0E4C 8585:690 JLINK_WriteMem(0x00402800, 0x0100 Bytes, ...) - Data: 7F 02 9A 60 1A 6B 2C 92 2C 9A 42 F0 4F 02 2C 92 ...  returns 0x100 (0000ms, 143465ms total)
T0E4C 8585:690 JLINK_WriteMem(0x00402900, 0x0100 Bytes, ...) - Data: BF F3 5F 8F 00 22 14 4B 1A 70 01 20 13 4B 98 47 ...  returns 0x100 (0000ms, 143465ms total)
T0E4C 8585:690 JLINK_WriteMem(0x00402A00, 0x0100 Bytes, ...) - Data: F5 17 40 00 D1 06 40 00 00 E1 00 E0 8C 0B 00 20 ...  returns 0x100 (0000ms, 143465ms total)
T0E4C 8585:690 JLINK_WriteMem(0x00402B00, 0x0100 Bytes, ...) - Data: 83 02 6A 74 24 4A 95 6A 01 26 06 FA 03 F3 1D 43 ...  returns 0x100 (0000ms, 143465ms total)
T0E4C 8585:690 JLINK_WriteMem(0x00402C00, 0x0100 Bytes, ...) - Data: 01 20 70 47 01 20 70 47 00 20 70 47 8C 0B 00 20 ...  returns 0x100 (0000ms, 143465ms total)
T0E4C 8585:690 JLINK_WriteMem(0x00402D00, 0x0100 Bytes, ...) - Data: F0 B5 85 B0 00 F0 0F 00 03 28 59 D8 30 4C 43 1E ...  returns 0x100 (0000ms, 143465ms total)
T0E4C 8585:690 JLINK_WriteMem(0x00402E00, 0x0100 Bytes, ...) - Data: 06 EB 86 06 B7 00 0C EB 07 06 96 F8 11 80 18 F0 ...  returns 0x100 (0000ms, 143465ms total)
T0E4C 8585:690 JLINK_WriteMem(0x00402F00, 0x0100 Bytes, ...) - Data: BD E8 F0 87 00 20 BD E8 F0 87 00 20 BD E8 F0 87 ...  returns 0x100 (0000ms, 143465ms total)
T0E4C 8585:690 JLINK_WriteMem(0x00403000, 0x0100 Bytes, ...) - Data: 13 2B 06 D8 00 BF 03 9B 01 33 03 93 03 9B 13 2B ...  returns 0x100 (0000ms, 143465ms total)
T0E4C 8585:690 JLINK_WriteMem(0x00403100, 0x0100 Bytes, ...) - Data: 5C 80 40 00 78 09 00 20 58 0C 00 20 78 09 00 20 ...  returns 0x100 (0000ms, 143465ms total)
T0E4C 8585:690 JLINK_WriteMem(0x00403200, 0x0100 Bytes, ...) - Data: 70 2B 07 D1 0A 4B 1A 68 0D 49 A1 FB 02 02 52 08 ...  returns 0x100 (0000ms, 143465ms total)
T0E4C 8585:690 JLINK_WriteMem(0x00403300, 0x0100 Bytes, ...) - Data: 70 B5 0E 4B 0E 4D 00 24 ED 1A AD 10 1E 46 AC 42 ...  returns 0x100 (0000ms, 143465ms total)
T0E4C 8585:690 JLINK_WriteMem(0x00403400, 0x0100 Bytes, ...) - Data: FB D1 18 1A 01 38 70 47 70 B5 03 78 0A 46 8B B1 ...  returns 0x100 (0000ms, 143465ms total)
T0E4C 8585:690 JLINK_WriteMem(0x00403500, 0x0100 Bytes, ...) - Data: 0C D1 00 2F 4F F0 22 03 0C BF 6F F0 00 40 4F F0 ...  returns 0x100 (0000ms, 143465ms total)
T0E4C 8585:690 JLINK_WriteMem(0x00403600, 0x0100 Bytes, ...) - Data: 40 F0 35 87 32 AE 0F 9A 2A 44 0F 92 23 78 00 2B ...  returns 0x100 (0000ms, 143465ms total)
T0E4C 8585:690 JLINK_WriteMem(0x00403700, 0x0100 Bytes, ...) - Data: 90 46 0B 9C 8E E7 8D F8 77 30 6E E0 AB 4C 8D F8 ...  returns 0x100 (0000ms, 143465ms total)
T0E4C 8585:690 JLINK_WriteMem(0x00403800, 0x0100 Bytes, ...) - Data: 17 F0 10 0F 08 F1 04 03 02 D0 D8 F8 00 40 05 E0 ...  returns 0x100 (0000ms, 143465ms total)
T0E4C 8585:690 JLINK_WriteMem(0x00403900, 0x0100 Bytes, ...) - Data: 04 D0 45 2C 05 D1 09 F1 01 05 03 E0 4D 46 03 23 ...  returns 0x100 (0000ms, 143465ms total)
T0E4C 8585:690 JLINK_WriteMem(0x00403A00, 0x0100 Bytes, ...) - Data: 11 33 09 29 03 F1 30 03 14 46 02 F8 01 39 0B 46 ...  returns 0x100 (0000ms, 143465ms total)
T0E4C 8585:690 JLINK_WriteMem(0x00403B00, 0x0100 Bytes, ...) - Data: 0F 9C 1C 80 03 E0 D8 F8 00 30 0F 9D 1D 60 88 46 ...  returns 0x100 (0000ms, 143465ms total)
T0E4C 8585:690 JLINK_WriteMem(0x00403C00, 0x0100 Bytes, ...) - Data: 03 F1 08 08 D3 E9 00 45 0D E0 17 F0 10 0F 08 F1 ...  returns 0x100 (0000ms, 143465ms total)
T0E4C 8585:690 JLINK_WriteMem(0x00403D00, 0x0100 Bytes, ...) - Data: 22 09 42 EA 05 70 29 09 16 90 17 91 DD E9 16 45 ...  returns 0x100 (0000ms, 143465ms total)
T0E4C 8585:690 JLINK_WriteMem(0x00403E00, 0x0100 Bytes, ...) - Data: 7E 7D 40 00 50 46 59 46 25 AA 02 F0 EF FA 00 28 ...  returns 0x100 (0000ms, 143465ms total)
T0E4C 8585:690 JLINK_WriteMem(0x00403F00, 0x0100 Bytes, ...) - Data: 05 05 00 2D 2E DD 7F 4B 10 2D 33 60 16 DD 10 23 ...  returns 0x100 (0000ms, 143465ms total)
T0E4C 8585:691 JLINK_WriteMem(0x00404000, 0x0100 Bytes, ...) - Data: 40 4B 10 2C 33 60 16 DD 10 23 73 60 27 9B 10 33 ...  returns 0x100 (0000ms, 143465ms total)
T0E4C 8585:691 JLINK_WriteMem(0x00404100, 0x0100 Bytes, ...) - Data: 08 36 0C E0 8E 7D 40 00 D0 7D 40 00 50 46 59 46 ...  returns 0x100 (0000ms, 143465ms total)
T0E4C 8585:691 JLINK_WriteMem(0x00404200, 0x0100 Bytes, ...) - Data: 07 2B 72 60 26 93 01 DC 08 36 08 E0 50 46 59 46 ...  returns 0x100 (0000ms, 143465ms total)
T0E4C 8585:691 JLINK_WriteMem(0x00404300, 0x0100 Bytes, ...) - Data: 32 AE 10 9C 27 9B 18 9D 23 44 27 93 26 9B 35 60 ...  returns 0x100 (0000ms, 143465ms total)
T0E4C 8585:691 JLINK_WriteMem(0x00404400, 0x0100 Bytes, ...) - Data: 73 60 27 9B 10 33 27 93 26 9B 01 33 07 2B 26 93 ...  returns 0x100 (0000ms, 143465ms total)
T0E4C 8585:691 JLINK_WriteMem(0x00404500, 0x0100 Bytes, ...) - Data: 0C EB 1A 4C 1F FA 8A FA CA EB 0B 0B 4F EA 1C 4E ...  returns 0x100 (0000ms, 143465ms total)
T0E4C 8585:691 JLINK_WriteMem(0x00404600, 0x0100 Bytes, ...) - Data: 00 23 23 60 05 9F 9C 4A 27 F0 00 43 1B 0D 1B 05 ...  returns 0x100 (0000ms, 143465ms total)
T0E4C 8585:691 JLINK_WriteMem(0x00404700, 0x0100 Bytes, ...) - Data: 02 F0 60 FB 04 46 30 46 0D 46 02 F0 A7 FC 58 A3 ...  returns 0x100 (0000ms, 143465ms total)
T0E4C 8585:691 JLINK_WriteMem(0x00404800, 0x0100 Bytes, ...) - Data: 00 27 0F 97 25 9F 4F 44 0B 97 01 37 3B 46 07 97 ...  returns 0x100 (0001ms, 143466ms total)
T0E4C 8585:692 JLINK_WriteMem(0x00404900, 0x0100 Bytes, ...) - Data: 0C 01 D5 E9 00 23 02 F0 0F FC CD E9 0C 01 01 37 ...  returns 0x100 (0000ms, 143466ms total)
T0E4C 8585:692 JLINK_WriteMem(0x00404A00, 0x0100 Bytes, ...) - Data: 05 F1 00 43 30 46 39 46 02 F0 00 FE 00 28 40 F0 ...  returns 0x100 (0000ms, 143466ms total)
T0E4C 8585:692 JLINK_WriteMem(0x00404B00, 0x0100 Bytes, ...) - Data: 30 46 02 F0 AB FD 05 46 02 F0 A8 FA 02 46 0B 46 ...  returns 0x100 (0000ms, 143466ms total)
T0E4C 8585:692 JLINK_WriteMem(0x00404C00, 0x0100 Bytes, ...) - Data: 09 9F 08 F8 01 6B C7 EB 08 06 07 9F 0B 46 BE 42 ...  returns 0x100 (0000ms, 143466ms total)
T0E4C 8585:692 JLINK_WriteMem(0x00404D00, 0x0100 Bytes, ...) - Data: FF 1A 08 97 0A 9F F6 1A FF 1A 0A 97 0E 9F 00 2F ...  returns 0x100 (0000ms, 143466ms total)
T0E4C 8585:692 JLINK_WriteMem(0x00404E00, 0x0100 Bytes, ...) - Data: 1E 44 0A 91 08 9A 00 2A 04 DD 59 46 50 46 00 F0 ...  returns 0x100 (0000ms, 143466ms total)
T0E4C 8585:692 JLINK_WriteMem(0x00404F00, 0x0100 Bytes, ...) - Data: 27 46 09 9E 29 46 58 46 FF F7 CE FA 21 46 00 F1 ...  returns 0x100 (0000ms, 143466ms total)
T0E4C 8585:692 JLINK_WriteMem(0x00405000, 0x0100 Bytes, ...) - Data: 0A 22 00 23 50 46 00 F0 50 FC BC 42 83 46 21 46 ...  returns 0x100 (0000ms, 143466ms total)
T0E4C 8585:692 JLINK_WriteMem(0x00405100, 0x0100 Bytes, ...) - Data: 88 F8 00 30 09 F1 01 03 3B 60 28 9F 27 B1 C7 F8 ...  returns 0x100 (0000ms, 143466ms total)
T0E4C 8585:692 JLINK_WriteMem(0x00405200, 0x0100 Bytes, ...) - Data: 55 F8 04 CC 52 4C A5 F1 08 03 2C F0 01 02 98 18 ...  returns 0x100 (0000ms, 143466ms total)
T0E4C 8585:692 JLINK_WriteMem(0x00405300, 0x0100 Bytes, ...) - Data: 06 E0 40 F2 54 50 81 42 9A BF 91 0C 7C 31 7E 21 ...  returns 0x100 (0000ms, 143466ms total)
T0E4C 8585:692 JLINK_WriteMem(0x00405400, 0x0100 Bytes, ...) - Data: 0C 23 3B 60 DE E1 38 46 00 F0 1D FA B4 F5 FC 7F ...  returns 0x100 (0000ms, 143466ms total)
T0E4C 8585:692 JLINK_WriteMem(0x00405500, 0x0100 Bytes, ...) - Data: 00 7F 11 D2 DB 08 98 10 4F F0 01 0C 0C FA 00 FC ...  returns 0x100 (0000ms, 143466ms total)
T0E4C 8585:692 JLINK_WriteMem(0x00405600, 0x0100 Bytes, ...) - Data: 5A 60 59 50 0C E0 00 29 0E DB 06 EB 09 01 4B 68 ...  returns 0x100 (0000ms, 143466ms total)
T0E4C 8585:692 JLINK_WriteMem(0x00405700, 0x0100 Bytes, ...) - Data: 03 E0 F3 1A 1A 44 C8 F8 04 20 16 F0 07 03 1C BF ...  returns 0x100 (0000ms, 143466ms total)
T0E4C 8585:692 JLINK_WriteMem(0x00405800, 0x0100 Bytes, ...) - Data: 1C 78 01 30 8C 42 F8 D1 18 46 10 BD 00 20 10 BD ...  returns 0x100 (0000ms, 143466ms total)
T0E4C 8585:692 JLINK_WriteMem(0x00405900, 0x0100 Bytes, ...) - Data: FD F7 24 FD 21 46 38 46 FF F7 C6 FF 44 46 04 EB ...  returns 0x100 (0000ms, 143466ms total)
T0E4C 8585:692 JLINK_WriteMem(0x00405A00, 0x0100 Bytes, ...) - Data: 70 47 99 B2 09 B9 1B 0C 10 22 13 F0 FF 0F 04 BF ...  returns 0x100 (0000ms, 143466ms total)
T0E4C 8585:692 JLINK_WriteMem(0x00405B00, 0x0100 Bytes, ...) - Data: B8 45 4B F8 04 AB 01 D9 5D 46 DD E7 6E 60 32 F8 ...  returns 0x100 (0000ms, 143466ms total)
T0E4C 8585:692 JLINK_WriteMem(0x00405C00, 0x0100 Bytes, ...) - Data: 0C 46 23 69 4F EA 62 1A 0A EB 03 09 49 68 A3 68 ...  returns 0x100 (0000ms, 143466ms total)
T0E4C 8585:692 JLINK_WriteMem(0x00405D00, 0x0100 Bytes, ...) - Data: BD E8 F0 87 01 DB 00 27 03 E0 23 46 01 27 2C 46 ...  returns 0x100 (0000ms, 143466ms total)
T0E4C 8585:692 JLINK_WriteMem(0x00405E00, 0x0100 Bytes, ...) - Data: C8 F8 00 30 14 DC BD 42 C0 F1 0B 01 88 BF 56 F8 ...  returns 0x100 (0000ms, 143466ms total)
T0E4C 8585:692 JLINK_WriteMem(0x00405F00, 0x0100 Bytes, ...) - Data: 35 00 0A E0 A0 F2 32 40 06 EB 84 03 C9 F8 00 00 ...  returns 0x100 (0000ms, 143466ms total)
T0E4C 8585:692 JLINK_WriteMem(0x00406000, 0x0100 Bytes, ...) - Data: 02 EB 83 03 93 42 19 46 05 D9 51 F8 04 1C 04 3B ...  returns 0x100 (0000ms, 143466ms total)
T0E4C 8585:692 JLINK_WriteMem(0x00406100, 0x0100 Bytes, ...) - Data: 0A EB 00 03 07 F1 10 01 8B 42 C0 F2 81 80 A8 46 ...  returns 0x100 (0000ms, 143466ms total)
